 time            v(inp)          v(out)         
 0.00000000e+00  9.00000000e-01  8.99999376e-01 
 1.10000000e-11  9.00000000e-01  8.99999376e-01 
 2.20000000e-11  9.00000000e-01  8.99999376e-01 
 4.40000000e-11  9.00000000e-01  8.99999376e-01 
 8.80000000e-11  9.00000000e-01  8.99999376e-01 
 1.76000000e-10  9.00000000e-01  8.99999376e-01 
 3.52000000e-10  9.00000000e-01  8.99999376e-01 
 7.04000000e-10  9.00000000e-01  8.99999376e-01 
 1.40800000e-09  9.00000000e-01  8.99999376e-01 
 2.50800000e-09  9.00000000e-01  8.99999376e-01 
 3.60800000e-09  9.00000000e-01  8.99999376e-01 
 4.70800000e-09  9.00000000e-01  8.99999376e-01 
 5.80800000e-09  9.00000000e-01  8.99999376e-01 
 6.90800000e-09  9.00000000e-01  8.99999376e-01 
 8.00800000e-09  9.00000000e-01  8.99999376e-01 
 9.10800000e-09  9.00000000e-01  8.99999376e-01 
 1.02080000e-08  9.00000000e-01  8.99999376e-01 
 1.13080000e-08  9.00000000e-01  8.99999376e-01 
 1.24080000e-08  9.00000000e-01  8.99999376e-01 
 1.35080000e-08  9.00000000e-01  8.99999376e-01 
 1.46080000e-08  9.00000000e-01  8.99999376e-01 
 1.57080000e-08  9.00000000e-01  8.99999376e-01 
 1.68080000e-08  9.00000000e-01  8.99999376e-01 
 1.79080000e-08  9.00000000e-01  8.99999376e-01 
 1.90080000e-08  9.00000000e-01  8.99999376e-01 
 2.01080000e-08  9.00000000e-01  8.99999376e-01 
 2.12080000e-08  9.00000000e-01  8.99999376e-01 
 2.23080000e-08  9.00000000e-01  8.99999376e-01 
 2.34080000e-08  9.00000000e-01  8.99999376e-01 
 2.45080000e-08  9.00000000e-01  8.99999376e-01 
 2.56080000e-08  9.00000000e-01  8.99999376e-01 
 2.67080000e-08  9.00000000e-01  8.99999376e-01 
 2.78080000e-08  9.00000000e-01  8.99999376e-01 
 2.89080000e-08  9.00000000e-01  8.99999376e-01 
 3.00080000e-08  9.00000000e-01  8.99999376e-01 
 3.11080000e-08  9.00000000e-01  8.99999376e-01 
 3.22080000e-08  9.00000000e-01  8.99999376e-01 
 3.33080000e-08  9.00000000e-01  8.99999376e-01 
 3.44080000e-08  9.00000000e-01  8.99999376e-01 
 3.55080000e-08  9.00000000e-01  8.99999376e-01 
 3.66080000e-08  9.00000000e-01  8.99999376e-01 
 3.77080000e-08  9.00000000e-01  8.99999376e-01 
 3.88080000e-08  9.00000000e-01  8.99999376e-01 
 3.99080000e-08  9.00000000e-01  8.99999376e-01 
 4.10080000e-08  9.00000000e-01  8.99999376e-01 
 4.21080000e-08  9.00000000e-01  8.99999376e-01 
 4.32080000e-08  9.00000000e-01  8.99999376e-01 
 4.43080000e-08  9.00000000e-01  8.99999376e-01 
 4.54080000e-08  9.00000000e-01  8.99999376e-01 
 4.65080000e-08  9.00000000e-01  8.99999376e-01 
 4.76080000e-08  9.00000000e-01  8.99999376e-01 
 4.87080000e-08  9.00000000e-01  8.99999376e-01 
 4.98080000e-08  9.00000000e-01  8.99999376e-01 
 5.09080000e-08  9.00000000e-01  8.99999376e-01 
 5.20080000e-08  9.00000000e-01  8.99999376e-01 
 5.31080000e-08  9.00000000e-01  8.99999376e-01 
 5.42080000e-08  9.00000000e-01  8.99999376e-01 
 5.53080000e-08  9.00000000e-01  8.99999376e-01 
 5.64080000e-08  9.00000000e-01  8.99999376e-01 
 5.75080000e-08  9.00000000e-01  8.99999376e-01 
 5.86080000e-08  9.00000000e-01  8.99999376e-01 
 5.97080000e-08  9.00000000e-01  8.99999376e-01 
 6.08080000e-08  9.00000000e-01  8.99999376e-01 
 6.19080000e-08  9.00000000e-01  8.99999376e-01 
 6.30080000e-08  9.00000000e-01  8.99999376e-01 
 6.41080000e-08  9.00000000e-01  8.99999376e-01 
 6.52080000e-08  9.00000000e-01  8.99999376e-01 
 6.63080000e-08  9.00000000e-01  8.99999376e-01 
 6.74080000e-08  9.00000000e-01  8.99999376e-01 
 6.85080000e-08  9.00000000e-01  8.99999376e-01 
 6.96080000e-08  9.00000000e-01  8.99999376e-01 
 7.07080000e-08  9.00000000e-01  8.99999376e-01 
 7.18080000e-08  9.00000000e-01  8.99999376e-01 
 7.29080000e-08  9.00000000e-01  8.99999376e-01 
 7.40080000e-08  9.00000000e-01  8.99999376e-01 
 7.51080000e-08  9.00000000e-01  8.99999376e-01 
 7.62080000e-08  9.00000000e-01  8.99999376e-01 
 7.73080000e-08  9.00000000e-01  8.99999376e-01 
 7.84080000e-08  9.00000000e-01  8.99999376e-01 
 7.95080000e-08  9.00000000e-01  8.99999376e-01 
 8.06080000e-08  9.00000000e-01  8.99999376e-01 
 8.17080000e-08  9.00000000e-01  8.99999376e-01 
 8.28080000e-08  9.00000000e-01  8.99999376e-01 
 8.39080000e-08  9.00000000e-01  8.99999376e-01 
 8.50080000e-08  9.00000000e-01  8.99999376e-01 
 8.61080000e-08  9.00000000e-01  8.99999376e-01 
 8.72080000e-08  9.00000000e-01  8.99999376e-01 
 8.83080000e-08  9.00000000e-01  8.99999376e-01 
 8.94080000e-08  9.00000000e-01  8.99999376e-01 
 9.05080000e-08  9.00000000e-01  8.99999376e-01 
 9.16080000e-08  9.00000000e-01  8.99999376e-01 
 9.27080000e-08  9.00000000e-01  8.99999376e-01 
 9.38080000e-08  9.00000000e-01  8.99999376e-01 
 9.49080000e-08  9.00000000e-01  8.99999376e-01 
 9.60080000e-08  9.00000000e-01  8.99999376e-01 
 9.71080000e-08  9.00000000e-01  8.99999376e-01 
 9.82080000e-08  9.00000000e-01  8.99999376e-01 
 9.93080000e-08  9.00000000e-01  8.99999376e-01 
 1.00000000e-07  9.00000000e-01  8.99999376e-01 
 1.00001000e-07  9.30000000e-01  9.00025714e-01 
 1.00003000e-07  9.90000000e-01  9.00077937e-01 
 1.00007000e-07  1.11000000e+00  9.00167508e-01 
 1.00010000e-07  1.20000000e+00  9.00230366e-01 
 1.00010800e-07  1.20000000e+00  9.00230472e-01 
 1.00012400e-07  1.20000000e+00  9.00230690e-01 
 1.00015600e-07  1.20000000e+00  9.00231146e-01 
 1.00022000e-07  1.20000000e+00  9.00232135e-01 
 1.00034800e-07  1.20000000e+00  9.00234369e-01 
 1.00060400e-07  1.20000000e+00  9.00239528e-01 
 1.00111600e-07  1.20000000e+00  9.00251122e-01 
 1.00214000e-07  1.20000000e+00  9.00274762e-01 
 1.00418800e-07  1.20000000e+00  9.00316651e-01 
 1.00828400e-07  1.20000000e+00  9.00388077e-01 
 1.01551627e-07  1.20000000e+00  9.00519252e-01 
 1.02651627e-07  1.20000000e+00  9.00753276e-01 
 1.03751627e-07  1.20000000e+00  9.01012586e-01 
 1.04851627e-07  1.20000000e+00  9.01289872e-01 
 1.05951627e-07  1.20000000e+00  9.01584655e-01 
 1.07051627e-07  1.20000000e+00  9.01895664e-01 
 1.08151627e-07  1.20000000e+00  9.02221697e-01 
 1.09251627e-07  1.20000000e+00  9.02561323e-01 
 1.10351627e-07  1.20000000e+00  9.02912990e-01 
 1.11451627e-07  1.20000000e+00  9.03275194e-01 
 1.12551627e-07  1.20000000e+00  9.03646651e-01 
 1.13651627e-07  1.20000000e+00  9.04026345e-01 
 1.14751627e-07  1.20000000e+00  9.04413496e-01 
 1.15851627e-07  1.20000000e+00  9.04807500e-01 
 1.16951627e-07  1.20000000e+00  9.05207871e-01 
 1.18051627e-07  1.20000000e+00  9.05614205e-01 
 1.19151627e-07  1.20000000e+00  9.06026151e-01 
 1.20251627e-07  1.20000000e+00  9.06443397e-01 
 1.21351627e-07  1.20000000e+00  9.06865660e-01 
 1.22451627e-07  1.20000000e+00  9.07292683e-01 
 1.23551627e-07  1.20000000e+00  9.07724224e-01 
 1.24651627e-07  1.20000000e+00  9.08160061e-01 
 1.25751627e-07  1.20000000e+00  9.08599985e-01 
 1.26851627e-07  1.20000000e+00  9.09043801e-01 
 1.27951627e-07  1.20000000e+00  9.09491326e-01 
 1.29051627e-07  1.20000000e+00  9.09942388e-01 
 1.30151627e-07  1.20000000e+00  9.10396824e-01 
 1.31251627e-07  1.20000000e+00  9.10854483e-01 
 1.32351627e-07  1.20000000e+00  9.11315220e-01 
 1.33451627e-07  1.20000000e+00  9.11778900e-01 
 1.34551627e-07  1.20000000e+00  9.12245394e-01 
 1.35651627e-07  1.20000000e+00  9.12714582e-01 
 1.36751627e-07  1.20000000e+00  9.13186349e-01 
 1.37851627e-07  1.20000000e+00  9.13660585e-01 
 1.38951627e-07  1.20000000e+00  9.14137193e-01 
 1.40051627e-07  1.20000000e+00  9.14616068e-01 
 1.41151627e-07  1.20000000e+00  9.15097113e-01 
 1.42251627e-07  1.20000000e+00  9.15580246e-01 
 1.43351627e-07  1.20000000e+00  9.16065385e-01 
 1.44451627e-07  1.20000000e+00  9.16552449e-01 
 1.45551627e-07  1.20000000e+00  9.17041363e-01 
 1.46651627e-07  1.20000000e+00  9.17532057e-01 
 1.47751627e-07  1.20000000e+00  9.18024461e-01 
 1.48851627e-07  1.20000000e+00  9.18518511e-01 
 1.49951627e-07  1.20000000e+00  9.19014144e-01 
 1.51051627e-07  1.20000000e+00  9.19511301e-01 
 1.52151627e-07  1.20000000e+00  9.20009926e-01 
 1.53251627e-07  1.20000000e+00  9.20509965e-01 
 1.54351627e-07  1.20000000e+00  9.21011366e-01 
 1.55451627e-07  1.20000000e+00  9.21514080e-01 
 1.56551627e-07  1.20000000e+00  9.22018060e-01 
 1.57651627e-07  1.20000000e+00  9.22523260e-01 
 1.58751627e-07  1.20000000e+00  9.23029638e-01 
 1.59851627e-07  1.20000000e+00  9.23537151e-01 
 1.60951627e-07  1.20000000e+00  9.24045762e-01 
 1.62051627e-07  1.20000000e+00  9.24555430e-01 
 1.63151627e-07  1.20000000e+00  9.25066121e-01 
 1.64251627e-07  1.20000000e+00  9.25577798e-01 
 1.65351627e-07  1.20000000e+00  9.26090429e-01 
 1.66451627e-07  1.20000000e+00  9.26603981e-01 
 1.67551627e-07  1.20000000e+00  9.27118424e-01 
 1.68651627e-07  1.20000000e+00  9.27633727e-01 
 1.69751627e-07  1.20000000e+00  9.28149862e-01 
 1.70851627e-07  1.20000000e+00  9.28666802e-01 
 1.71951627e-07  1.20000000e+00  9.29184520e-01 
 1.73051627e-07  1.20000000e+00  9.29702991e-01 
 1.74151627e-07  1.20000000e+00  9.30222190e-01 
 1.75251627e-07  1.20000000e+00  9.30742094e-01 
 1.76351627e-07  1.20000000e+00  9.31262680e-01 
 1.77451627e-07  1.20000000e+00  9.31783927e-01 
 1.78551627e-07  1.20000000e+00  9.32305812e-01 
 1.79651627e-07  1.20000000e+00  9.32828317e-01 
 1.80751627e-07  1.20000000e+00  9.33351421e-01 
 1.81851627e-07  1.20000000e+00  9.33875106e-01 
 1.82951627e-07  1.20000000e+00  9.34399353e-01 
 1.84051627e-07  1.20000000e+00  9.34924145e-01 
 1.85151627e-07  1.20000000e+00  9.35449465e-01 
 1.86251627e-07  1.20000000e+00  9.35975297e-01 
 1.87351627e-07  1.20000000e+00  9.36501624e-01 
 1.88451627e-07  1.20000000e+00  9.37028432e-01 
 1.89551627e-07  1.20000000e+00  9.37555706e-01 
 1.90651627e-07  1.20000000e+00  9.38083431e-01 
 1.91751627e-07  1.20000000e+00  9.38611594e-01 
 1.92851627e-07  1.20000000e+00  9.39140182e-01 
 1.93951627e-07  1.20000000e+00  9.39669182e-01 
 1.95051627e-07  1.20000000e+00  9.40198581e-01 
 1.96151627e-07  1.20000000e+00  9.40728367e-01 
 1.97251627e-07  1.20000000e+00  9.41258529e-01 
 1.98351627e-07  1.20000000e+00  9.41789056e-01 
 1.99451627e-07  1.20000000e+00  9.42319935e-01 
 2.00551627e-07  1.20000000e+00  9.42851158e-01 
 2.01651627e-07  1.20000000e+00  9.43382714e-01 
 2.02751627e-07  1.20000000e+00  9.43914593e-01 
 2.03851627e-07  1.20000000e+00  9.44446784e-01 
 2.04951627e-07  1.20000000e+00  9.44979280e-01 
 2.06051627e-07  1.20000000e+00  9.45512071e-01 
 2.07151627e-07  1.20000000e+00  9.46045148e-01 
 2.08251627e-07  1.20000000e+00  9.46578504e-01 
 2.09351627e-07  1.20000000e+00  9.47112128e-01 
 2.10451627e-07  1.20000000e+00  9.47646015e-01 
 2.11551627e-07  1.20000000e+00  9.48180156e-01 
 2.12651627e-07  1.20000000e+00  9.48714543e-01 
 2.13751627e-07  1.20000000e+00  9.49249170e-01 
 2.14851627e-07  1.20000000e+00  9.49784029e-01 
 2.15951627e-07  1.20000000e+00  9.50319113e-01 
 2.17051627e-07  1.20000000e+00  9.50854417e-01 
 2.18151627e-07  1.20000000e+00  9.51389933e-01 
 2.19251627e-07  1.20000000e+00  9.51925655e-01 
 2.20351627e-07  1.20000000e+00  9.52461578e-01 
 2.21451627e-07  1.20000000e+00  9.52997694e-01 
 2.22551627e-07  1.20000000e+00  9.53534000e-01 
 2.23651627e-07  1.20000000e+00  9.54070488e-01 
 2.24751627e-07  1.20000000e+00  9.54607155e-01 
 2.25851627e-07  1.20000000e+00  9.55143993e-01 
 2.26951627e-07  1.20000000e+00  9.55680999e-01 
 2.28051627e-07  1.20000000e+00  9.56218168e-01 
 2.29151627e-07  1.20000000e+00  9.56755494e-01 
 2.30251627e-07  1.20000000e+00  9.57292973e-01 
 2.31351627e-07  1.20000000e+00  9.57830600e-01 
 2.32451627e-07  1.20000000e+00  9.58368372e-01 
 2.33551627e-07  1.20000000e+00  9.58906283e-01 
 2.34651627e-07  1.20000000e+00  9.59444330e-01 
 2.35751627e-07  1.20000000e+00  9.59982508e-01 
 2.36851627e-07  1.20000000e+00  9.60520813e-01 
 2.37951627e-07  1.20000000e+00  9.61059242e-01 
 2.39051627e-07  1.20000000e+00  9.61597791e-01 
 2.40151627e-07  1.20000000e+00  9.62136457e-01 
 2.41251627e-07  1.20000000e+00  9.62675235e-01 
 2.42351627e-07  1.20000000e+00  9.63214122e-01 
 2.43451627e-07  1.20000000e+00  9.63753115e-01 
 2.44551627e-07  1.20000000e+00  9.64292210e-01 
 2.45651627e-07  1.20000000e+00  9.64831405e-01 
 2.46751627e-07  1.20000000e+00  9.65370697e-01 
 2.47851627e-07  1.20000000e+00  9.65910081e-01 
 2.48951627e-07  1.20000000e+00  9.66449555e-01 
 2.50051627e-07  1.20000000e+00  9.66989117e-01 
 2.51151627e-07  1.20000000e+00  9.67528764e-01 
 2.52251627e-07  1.20000000e+00  9.68068492e-01 
 2.53351627e-07  1.20000000e+00  9.68608300e-01 
 2.54451627e-07  1.20000000e+00  9.69148183e-01 
 2.55551627e-07  1.20000000e+00  9.69688141e-01 
 2.56651627e-07  1.20000000e+00  9.70228170e-01 
 2.57751627e-07  1.20000000e+00  9.70768269e-01 
 2.58851627e-07  1.20000000e+00  9.71308434e-01 
 2.59951627e-07  1.20000000e+00  9.71848663e-01 
 2.61051627e-07  1.20000000e+00  9.72388954e-01 
 2.62151627e-07  1.20000000e+00  9.72929305e-01 
 2.63251627e-07  1.20000000e+00  9.73469714e-01 
 2.64351627e-07  1.20000000e+00  9.74010179e-01 
 2.65451627e-07  1.20000000e+00  9.74550697e-01 
 2.66551627e-07  1.20000000e+00  9.75091266e-01 
 2.67651627e-07  1.20000000e+00  9.75631885e-01 
 2.68751627e-07  1.20000000e+00  9.76172552e-01 
 2.69851627e-07  1.20000000e+00  9.76713264e-01 
 2.70951627e-07  1.20000000e+00  9.77254020e-01 
 2.72051627e-07  1.20000000e+00  9.77794818e-01 
 2.73151627e-07  1.20000000e+00  9.78335657e-01 
 2.74251627e-07  1.20000000e+00  9.78876533e-01 
 2.75351627e-07  1.20000000e+00  9.79417447e-01 
 2.76451627e-07  1.20000000e+00  9.79958396e-01 
 2.77551627e-07  1.20000000e+00  9.80499378e-01 
 2.78651627e-07  1.20000000e+00  9.81040393e-01 
 2.79751627e-07  1.20000000e+00  9.81581437e-01 
 2.80851627e-07  1.20000000e+00  9.82122511e-01 
 2.81951627e-07  1.20000000e+00  9.82663611e-01 
 2.83051627e-07  1.20000000e+00  9.83204738e-01 
 2.84151627e-07  1.20000000e+00  9.83745888e-01 
 2.85251627e-07  1.20000000e+00  9.84287062e-01 
 2.86351627e-07  1.20000000e+00  9.84828257e-01 
 2.87451627e-07  1.20000000e+00  9.85369472e-01 
 2.88551627e-07  1.20000000e+00  9.85910706e-01 
 2.89651627e-07  1.20000000e+00  9.86451957e-01 
 2.90751627e-07  1.20000000e+00  9.86993224e-01 
 2.91851627e-07  1.20000000e+00  9.87534505e-01 
 2.92951627e-07  1.20000000e+00  9.88075801e-01 
 2.94051627e-07  1.20000000e+00  9.88617108e-01 
 2.95151627e-07  1.20000000e+00  9.89158426e-01 
 2.96251627e-07  1.20000000e+00  9.89699754e-01 
 2.97351627e-07  1.20000000e+00  9.90241090e-01 
 2.98451627e-07  1.20000000e+00  9.90782434e-01 
 2.99551627e-07  1.20000000e+00  9.91323784e-01 
 3.00651627e-07  1.20000000e+00  9.91865138e-01 
 3.01751627e-07  1.20000000e+00  9.92406497e-01 
 3.02851627e-07  1.20000000e+00  9.92947857e-01 
 3.03951627e-07  1.20000000e+00  9.93489220e-01 
 3.05051627e-07  1.20000000e+00  9.94030582e-01 
 3.06151627e-07  1.20000000e+00  9.94571944e-01 
 3.07251627e-07  1.20000000e+00  9.95113304e-01 
 3.08351627e-07  1.20000000e+00  9.95654661e-01 
 3.09451627e-07  1.20000000e+00  9.96196014e-01 
 3.10551627e-07  1.20000000e+00  9.96737362e-01 
 3.11651627e-07  1.20000000e+00  9.97278703e-01 
 3.12751627e-07  1.20000000e+00  9.97820038e-01 
 3.13851627e-07  1.20000000e+00  9.98361364e-01 
 3.14951627e-07  1.20000000e+00  9.98902680e-01 
 3.16051627e-07  1.20000000e+00  9.99443986e-01 
 3.17151627e-07  1.20000000e+00  9.99985281e-01 
 3.18251627e-07  1.20000000e+00  1.00052656e+00 
 3.19351627e-07  1.20000000e+00  1.00106783e+00 
 3.20451627e-07  1.20000000e+00  1.00160909e+00 
 3.21551627e-07  1.20000000e+00  1.00215033e+00 
 3.22651627e-07  1.20000000e+00  1.00269155e+00 
 3.23751627e-07  1.20000000e+00  1.00323275e+00 
 3.24851627e-07  1.20000000e+00  1.00377394e+00 
 3.25951627e-07  1.20000000e+00  1.00431510e+00 
 3.27051627e-07  1.20000000e+00  1.00485625e+00 
 3.28151627e-07  1.20000000e+00  1.00539737e+00 
 3.29251627e-07  1.20000000e+00  1.00593848e+00 
 3.30351627e-07  1.20000000e+00  1.00647955e+00 
 3.31451627e-07  1.20000000e+00  1.00702061e+00 
 3.32551627e-07  1.20000000e+00  1.00756164e+00 
 3.33651627e-07  1.20000000e+00  1.00810264e+00 
 3.34751627e-07  1.20000000e+00  1.00864361e+00 
 3.35851627e-07  1.20000000e+00  1.00918455e+00 
 3.36951627e-07  1.20000000e+00  1.00972547e+00 
 3.38051627e-07  1.20000000e+00  1.01026635e+00 
 3.39151627e-07  1.20000000e+00  1.01080721e+00 
 3.40251627e-07  1.20000000e+00  1.01134803e+00 
 3.41351627e-07  1.20000000e+00  1.01188881e+00 
 3.42451627e-07  1.20000000e+00  1.01242956e+00 
 3.43551627e-07  1.20000000e+00  1.01297028e+00 
 3.44651627e-07  1.20000000e+00  1.01351096e+00 
 3.45751627e-07  1.20000000e+00  1.01405160e+00 
 3.46851627e-07  1.20000000e+00  1.01459220e+00 
 3.47951627e-07  1.20000000e+00  1.01513276e+00 
 3.49051627e-07  1.20000000e+00  1.01567328e+00 
 3.50151627e-07  1.20000000e+00  1.01621375e+00 
 3.51251627e-07  1.20000000e+00  1.01675419e+00 
 3.52351627e-07  1.20000000e+00  1.01729458e+00 
 3.53451627e-07  1.20000000e+00  1.01783492e+00 
 3.54551627e-07  1.20000000e+00  1.01837522e+00 
 3.55651627e-07  1.20000000e+00  1.01891547e+00 
 3.56751627e-07  1.20000000e+00  1.01945567e+00 
 3.57851627e-07  1.20000000e+00  1.01999582e+00 
 3.58951627e-07  1.20000000e+00  1.02053591e+00 
 3.60051627e-07  1.20000000e+00  1.02107596e+00 
 3.61151627e-07  1.20000000e+00  1.02161595e+00 
 3.62251627e-07  1.20000000e+00  1.02215589e+00 
 3.63351627e-07  1.20000000e+00  1.02269577e+00 
 3.64451627e-07  1.20000000e+00  1.02323559e+00 
 3.65551627e-07  1.20000000e+00  1.02377536e+00 
 3.66651627e-07  1.20000000e+00  1.02431506e+00 
 3.67751627e-07  1.20000000e+00  1.02485471e+00 
 3.68851627e-07  1.20000000e+00  1.02539429e+00 
 3.69951627e-07  1.20000000e+00  1.02593381e+00 
 3.71051627e-07  1.20000000e+00  1.02647326e+00 
 3.72151627e-07  1.20000000e+00  1.02701265e+00 
 3.73251627e-07  1.20000000e+00  1.02755196e+00 
 3.74351627e-07  1.20000000e+00  1.02809121e+00 
 3.75451627e-07  1.20000000e+00  1.02863039e+00 
 3.76551627e-07  1.20000000e+00  1.02916950e+00 
 3.77651627e-07  1.20000000e+00  1.02970854e+00 
 3.78751627e-07  1.20000000e+00  1.03024749e+00 
 3.79851627e-07  1.20000000e+00  1.03078638e+00 
 3.80951627e-07  1.20000000e+00  1.03132518e+00 
 3.82051627e-07  1.20000000e+00  1.03186391e+00 
 3.83151627e-07  1.20000000e+00  1.03240256e+00 
 3.84251627e-07  1.20000000e+00  1.03294112e+00 
 3.85351627e-07  1.20000000e+00  1.03347960e+00 
 3.86451627e-07  1.20000000e+00  1.03401800e+00 
 3.87551627e-07  1.20000000e+00  1.03455631e+00 
 3.88651627e-07  1.20000000e+00  1.03509453e+00 
 3.89751627e-07  1.20000000e+00  1.03563266e+00 
 3.90851627e-07  1.20000000e+00  1.03617070e+00 
 3.91951627e-07  1.20000000e+00  1.03670864e+00 
 3.93051627e-07  1.20000000e+00  1.03724650e+00 
 3.94151627e-07  1.20000000e+00  1.03778425e+00 
 3.95251627e-07  1.20000000e+00  1.03832191e+00 
 3.96351627e-07  1.20000000e+00  1.03885946e+00 
 3.97451627e-07  1.20000000e+00  1.03939691e+00 
 3.98551627e-07  1.20000000e+00  1.03993426e+00 
 3.99651627e-07  1.20000000e+00  1.04047151e+00 
 4.00751627e-07  1.20000000e+00  1.04100864e+00 
 4.01851627e-07  1.20000000e+00  1.04154567e+00 
 4.02951627e-07  1.20000000e+00  1.04208258e+00 
 4.04051627e-07  1.20000000e+00  1.04261939e+00 
 4.05151627e-07  1.20000000e+00  1.04315607e+00 
 4.06251627e-07  1.20000000e+00  1.04369264e+00 
 4.07351627e-07  1.20000000e+00  1.04422909e+00 
 4.08451627e-07  1.20000000e+00  1.04476542e+00 
 4.09551627e-07  1.20000000e+00  1.04530162e+00 
 4.10651627e-07  1.20000000e+00  1.04583770e+00 
 4.11751627e-07  1.20000000e+00  1.04637365e+00 
 4.12851627e-07  1.20000000e+00  1.04690947e+00 
 4.13951627e-07  1.20000000e+00  1.04744516e+00 
 4.15051627e-07  1.20000000e+00  1.04798072e+00 
