 time            v(in)           v(out)         
 0.00000000e+00  0.00000000e+00  0.00000000e+00 
 6.00000000e-12  0.00000000e+00  0.00000000e+00 
 1.20000000e-11  0.00000000e+00  0.00000000e+00 
 2.40000000e-11  0.00000000e+00  0.00000000e+00 
 4.80000000e-11  0.00000000e+00  0.00000000e+00 
 9.60000000e-11  0.00000000e+00  0.00000000e+00 
 1.92000000e-10  0.00000000e+00  0.00000000e+00 
 3.84000000e-10  0.00000000e+00  0.00000000e+00 
 7.68000000e-10  0.00000000e+00  0.00000000e+00 
 1.36800000e-09  0.00000000e+00  0.00000000e+00 
 1.96800000e-09  0.00000000e+00  0.00000000e+00 
 2.56800000e-09  0.00000000e+00  0.00000000e+00 
 3.16800000e-09  0.00000000e+00  0.00000000e+00 
 3.76800000e-09  0.00000000e+00  0.00000000e+00 
 4.36800000e-09  0.00000000e+00  0.00000000e+00 
 4.96800000e-09  0.00000000e+00  0.00000000e+00 
 5.56800000e-09  0.00000000e+00  0.00000000e+00 
 6.16800000e-09  0.00000000e+00  0.00000000e+00 
 6.76800000e-09  0.00000000e+00  0.00000000e+00 
 7.36800000e-09  0.00000000e+00  0.00000000e+00 
 7.96800000e-09  0.00000000e+00  0.00000000e+00 
 8.56800000e-09  0.00000000e+00  0.00000000e+00 
 9.16800000e-09  0.00000000e+00  0.00000000e+00 
 9.76800000e-09  0.00000000e+00  0.00000000e+00 
 1.03680000e-08  0.00000000e+00  0.00000000e+00 
 1.09680000e-08  0.00000000e+00  0.00000000e+00 
 1.15680000e-08  0.00000000e+00  0.00000000e+00 
 1.21680000e-08  0.00000000e+00  0.00000000e+00 
 1.27680000e-08  0.00000000e+00  0.00000000e+00 
 1.33680000e-08  0.00000000e+00  0.00000000e+00 
 1.39680000e-08  0.00000000e+00  0.00000000e+00 
 1.45680000e-08  0.00000000e+00  0.00000000e+00 
 1.51680000e-08  0.00000000e+00  0.00000000e+00 
 1.57680000e-08  0.00000000e+00  0.00000000e+00 
 1.63680000e-08  0.00000000e+00  0.00000000e+00 
 1.69680000e-08  0.00000000e+00  0.00000000e+00 
 1.75680000e-08  0.00000000e+00  0.00000000e+00 
 1.81680000e-08  0.00000000e+00  0.00000000e+00 
 1.87680000e-08  0.00000000e+00  0.00000000e+00 
 1.93680000e-08  0.00000000e+00  0.00000000e+00 
 1.99680000e-08  0.00000000e+00  0.00000000e+00 
 2.05680000e-08  0.00000000e+00  0.00000000e+00 
 2.11680000e-08  0.00000000e+00  0.00000000e+00 
 2.17680000e-08  0.00000000e+00  0.00000000e+00 
 2.23680000e-08  0.00000000e+00  0.00000000e+00 
 2.29680000e-08  0.00000000e+00  0.00000000e+00 
 2.35680000e-08  0.00000000e+00  0.00000000e+00 
 2.41680000e-08  0.00000000e+00  0.00000000e+00 
 2.47680000e-08  0.00000000e+00  0.00000000e+00 
 2.53680000e-08  0.00000000e+00  0.00000000e+00 
 2.59680000e-08  0.00000000e+00  0.00000000e+00 
 2.65680000e-08  0.00000000e+00  0.00000000e+00 
 2.71680000e-08  0.00000000e+00  0.00000000e+00 
 2.77680000e-08  0.00000000e+00  0.00000000e+00 
 2.83680000e-08  0.00000000e+00  0.00000000e+00 
 2.89680000e-08  0.00000000e+00  0.00000000e+00 
 2.95680000e-08  0.00000000e+00  0.00000000e+00 
 3.01680000e-08  0.00000000e+00  0.00000000e+00 
 3.07680000e-08  0.00000000e+00  0.00000000e+00 
 3.13680000e-08  0.00000000e+00  0.00000000e+00 
 3.19680000e-08  0.00000000e+00  0.00000000e+00 
 3.25680000e-08  0.00000000e+00  0.00000000e+00 
 3.31680000e-08  0.00000000e+00  0.00000000e+00 
 3.37680000e-08  0.00000000e+00  0.00000000e+00 
 3.43680000e-08  0.00000000e+00  0.00000000e+00 
 3.49680000e-08  0.00000000e+00  0.00000000e+00 
 3.55680000e-08  0.00000000e+00  0.00000000e+00 
 3.61680000e-08  0.00000000e+00  0.00000000e+00 
 3.67680000e-08  0.00000000e+00  0.00000000e+00 
 3.73680000e-08  0.00000000e+00  0.00000000e+00 
 3.79680000e-08  0.00000000e+00  0.00000000e+00 
 3.85680000e-08  0.00000000e+00  0.00000000e+00 
 3.91680000e-08  0.00000000e+00  0.00000000e+00 
 3.97680000e-08  0.00000000e+00  0.00000000e+00 
 4.03680000e-08  0.00000000e+00  0.00000000e+00 
 4.09680000e-08  0.00000000e+00  0.00000000e+00 
 4.15680000e-08  0.00000000e+00  0.00000000e+00 
 4.21680000e-08  0.00000000e+00  0.00000000e+00 
 4.27680000e-08  0.00000000e+00  0.00000000e+00 
 4.33680000e-08  0.00000000e+00  0.00000000e+00 
 4.39680000e-08  0.00000000e+00  0.00000000e+00 
 4.45680000e-08  0.00000000e+00  0.00000000e+00 
 4.51680000e-08  0.00000000e+00  0.00000000e+00 
 4.57680000e-08  0.00000000e+00  0.00000000e+00 
 4.63680000e-08  0.00000000e+00  0.00000000e+00 
 4.69680000e-08  0.00000000e+00  0.00000000e+00 
 4.75680000e-08  0.00000000e+00  0.00000000e+00 
 4.81680000e-08  0.00000000e+00  0.00000000e+00 
 4.87680000e-08  0.00000000e+00  0.00000000e+00 
 4.93680000e-08  0.00000000e+00  0.00000000e+00 
 4.99680000e-08  0.00000000e+00  0.00000000e+00 
 5.05680000e-08  0.00000000e+00  0.00000000e+00 
 5.11680000e-08  0.00000000e+00  0.00000000e+00 
 5.17680000e-08  0.00000000e+00  0.00000000e+00 
 5.23680000e-08  0.00000000e+00  0.00000000e+00 
 5.29680000e-08  0.00000000e+00  0.00000000e+00 
 5.35680000e-08  0.00000000e+00  0.00000000e+00 
 5.41680000e-08  0.00000000e+00  0.00000000e+00 
 5.47680000e-08  0.00000000e+00  0.00000000e+00 
 5.53680000e-08  0.00000000e+00  0.00000000e+00 
 5.59680000e-08  0.00000000e+00  0.00000000e+00 
 5.65680000e-08  0.00000000e+00  0.00000000e+00 
 5.71680000e-08  0.00000000e+00  0.00000000e+00 
 5.77680000e-08  0.00000000e+00  0.00000000e+00 
 5.83680000e-08  0.00000000e+00  0.00000000e+00 
 5.89680000e-08  0.00000000e+00  0.00000000e+00 
 5.95680000e-08  0.00000000e+00  0.00000000e+00 
 6.01680000e-08  0.00000000e+00  0.00000000e+00 
 6.07680000e-08  0.00000000e+00  0.00000000e+00 
 6.13680000e-08  0.00000000e+00  0.00000000e+00 
 6.19680000e-08  0.00000000e+00  0.00000000e+00 
 6.25680000e-08  0.00000000e+00  0.00000000e+00 
 6.31680000e-08  0.00000000e+00  0.00000000e+00 
 6.37680000e-08  0.00000000e+00  0.00000000e+00 
 6.43680000e-08  0.00000000e+00  0.00000000e+00 
 6.49680000e-08  0.00000000e+00  0.00000000e+00 
 6.55680000e-08  0.00000000e+00  0.00000000e+00 
 6.61680000e-08  0.00000000e+00  0.00000000e+00 
 6.67680000e-08  0.00000000e+00  0.00000000e+00 
 6.73680000e-08  0.00000000e+00  0.00000000e+00 
 6.79680000e-08  0.00000000e+00  0.00000000e+00 
 6.85680000e-08  0.00000000e+00  0.00000000e+00 
 6.91680000e-08  0.00000000e+00  0.00000000e+00 
 6.97680000e-08  0.00000000e+00  0.00000000e+00 
 7.03680000e-08  0.00000000e+00  0.00000000e+00 
 7.09680000e-08  0.00000000e+00  0.00000000e+00 
 7.15680000e-08  0.00000000e+00  0.00000000e+00 
 7.21680000e-08  0.00000000e+00  0.00000000e+00 
 7.27680000e-08  0.00000000e+00  0.00000000e+00 
 7.33680000e-08  0.00000000e+00  0.00000000e+00 
 7.39680000e-08  0.00000000e+00  0.00000000e+00 
 7.45680000e-08  0.00000000e+00  0.00000000e+00 
 7.51680000e-08  0.00000000e+00  0.00000000e+00 
 7.57680000e-08  0.00000000e+00  0.00000000e+00 
 7.63680000e-08  0.00000000e+00  0.00000000e+00 
 7.69680000e-08  0.00000000e+00  0.00000000e+00 
 7.75680000e-08  0.00000000e+00  0.00000000e+00 
 7.81680000e-08  0.00000000e+00  0.00000000e+00 
 7.87680000e-08  0.00000000e+00  0.00000000e+00 
 7.93680000e-08  0.00000000e+00  0.00000000e+00 
 7.99680000e-08  0.00000000e+00  0.00000000e+00 
 8.05680000e-08  0.00000000e+00  0.00000000e+00 
 8.11680000e-08  0.00000000e+00  0.00000000e+00 
 8.17680000e-08  0.00000000e+00  0.00000000e+00 
 8.23680000e-08  0.00000000e+00  0.00000000e+00 
 8.29680000e-08  0.00000000e+00  0.00000000e+00 
 8.35680000e-08  0.00000000e+00  0.00000000e+00 
 8.41680000e-08  0.00000000e+00  0.00000000e+00 
 8.47680000e-08  0.00000000e+00  0.00000000e+00 
 8.53680000e-08  0.00000000e+00  0.00000000e+00 
 8.59680000e-08  0.00000000e+00  0.00000000e+00 
 8.65680000e-08  0.00000000e+00  0.00000000e+00 
 8.71680000e-08  0.00000000e+00  0.00000000e+00 
 8.77680000e-08  0.00000000e+00  0.00000000e+00 
 8.83680000e-08  0.00000000e+00  0.00000000e+00 
 8.89680000e-08  0.00000000e+00  0.00000000e+00 
 8.95680000e-08  0.00000000e+00  0.00000000e+00 
 9.01680000e-08  0.00000000e+00  0.00000000e+00 
 9.07680000e-08  0.00000000e+00  0.00000000e+00 
 9.13680000e-08  0.00000000e+00  0.00000000e+00 
 9.19680000e-08  0.00000000e+00  0.00000000e+00 
 9.25680000e-08  0.00000000e+00  0.00000000e+00 
 9.31680000e-08  0.00000000e+00  0.00000000e+00 
 9.37680000e-08  0.00000000e+00  0.00000000e+00 
 9.43680000e-08  0.00000000e+00  0.00000000e+00 
 9.49680000e-08  0.00000000e+00  0.00000000e+00 
 9.55680000e-08  0.00000000e+00  0.00000000e+00 
 9.61680000e-08  0.00000000e+00  0.00000000e+00 
 9.67680000e-08  0.00000000e+00  0.00000000e+00 
 9.73680000e-08  0.00000000e+00  0.00000000e+00 
 9.79680000e-08  0.00000000e+00  0.00000000e+00 
 9.85680000e-08  0.00000000e+00  0.00000000e+00 
 9.91680000e-08  0.00000000e+00  0.00000000e+00 
 9.97680000e-08  0.00000000e+00  0.00000000e+00 
 1.00000000e-07  0.00000000e+00  0.00000000e+00 
 1.00001000e-07 -1.00000000e-03 -8.33306430e-04 
 1.00003000e-07 -3.00000000e-03 -2.49986549e-03 
 1.00007000e-07 -7.00000000e-03 -5.83266125e-03 
 1.00010000e-07 -1.00000000e-02 -8.33197757e-03 
 1.00010800e-07 -1.00000000e-02 -8.33176370e-03 
 1.00012400e-07 -1.00000000e-02 -8.33133597e-03 
 1.00015600e-07 -1.00000000e-02 -8.33048054e-03 
 1.00022000e-07 -1.00000000e-02 -8.32876980e-03 
 1.00034800e-07 -1.00000000e-02 -8.32534878e-03 
 1.00060400e-07 -1.00000000e-02 -8.31850865e-03 
 1.00111600e-07 -1.00000000e-02 -8.30483597e-03 
 1.00214000e-07 -1.00000000e-02 -8.27752084e-03 
 1.00418800e-07 -1.00000000e-02 -8.22301141e-03 
 1.00828400e-07 -1.00000000e-02 -8.11447405e-03 
 1.01428400e-07 -1.00000000e-02 -7.95663632e-03 
 1.02028400e-07 -1.00000000e-02 -7.80015899e-03 
 1.02628400e-07 -1.00000000e-02 -7.64503081e-03 
 1.03228400e-07 -1.00000000e-02 -7.49124057e-03 
 1.03828400e-07 -1.00000000e-02 -7.33877711e-03 
 1.04428400e-07 -1.00000000e-02 -7.18762939e-03 
 1.05028400e-07 -1.00000000e-02 -7.03778643e-03 
 1.05628400e-07 -1.00000000e-02 -6.88923732e-03 
 1.06228400e-07 -1.00000000e-02 -6.74197127e-03 
 1.06828400e-07 -1.00000000e-02 -6.59597754e-03 
 1.07428400e-07 -1.00000000e-02 -6.45124548e-03 
 1.08028400e-07 -1.00000000e-02 -6.30776452e-03 
 1.08628400e-07 -1.00000000e-02 -6.16552417e-03 
 1.09228400e-07 -1.00000000e-02 -6.02451402e-03 
 1.09828400e-07 -1.00000000e-02 -5.88472374e-03 
 1.10428400e-07 -1.00000000e-02 -5.74614308e-03 
 1.11028400e-07 -1.00000000e-02 -5.60876186e-03 
 1.11628400e-07 -1.00000000e-02 -5.47256998e-03 
 1.12228400e-07 -1.00000000e-02 -5.33755743e-03 
 1.12828400e-07 -1.00000000e-02 -5.20371427e-03 
 1.13428400e-07 -1.00000000e-02 -5.07103063e-03 
 1.14028400e-07 -1.00000000e-02 -4.93949673e-03 
 1.14628400e-07 -1.00000000e-02 -4.80910285e-03 
 1.15228400e-07 -1.00000000e-02 -4.67983936e-03 
 1.15828400e-07 -1.00000000e-02 -4.55169670e-03 
 1.16428400e-07 -1.00000000e-02 -4.42466537e-03 
 1.17028400e-07 -1.00000000e-02 -4.29873597e-03 
 1.17628400e-07 -1.00000000e-02 -4.17389917e-03 
 1.18228400e-07 -1.00000000e-02 -4.05014568e-03 
 1.18828400e-07 -1.00000000e-02 -3.92746633e-03 
 1.19428400e-07 -1.00000000e-02 -3.80585200e-03 
 1.20028400e-07 -1.00000000e-02 -3.68529363e-03 
 1.20628400e-07 -1.00000000e-02 -3.56578225e-03 
 1.21228400e-07 -1.00000000e-02 -3.44730896e-03 
 1.21828400e-07 -1.00000000e-02 -3.32986492e-03 
 1.22428400e-07 -1.00000000e-02 -3.21344138e-03 
 1.23028400e-07 -1.00000000e-02 -3.09802963e-03 
 1.23628400e-07 -1.00000000e-02 -2.98362106e-03 
 1.24228400e-07 -1.00000000e-02 -2.87020712e-03 
 1.24828400e-07 -1.00000000e-02 -2.75777931e-03 
 1.25428400e-07 -1.00000000e-02 -2.64632921e-03 
 1.26028400e-07 -1.00000000e-02 -2.53584849e-03 
 1.26628400e-07 -1.00000000e-02 -2.42632886e-03 
 1.27228400e-07 -1.00000000e-02 -2.31776209e-03 
 1.27828400e-07 -1.00000000e-02 -2.21014006e-03 
 1.28428400e-07 -1.00000000e-02 -2.10345466e-03 
 1.29028400e-07 -1.00000000e-02 -1.99769788e-03 
 1.29628400e-07 -1.00000000e-02 -1.89286178e-03 
 1.30228400e-07 -1.00000000e-02 -1.78893847e-03 
 1.30828400e-07 -1.00000000e-02 -1.68592011e-03 
 1.31428400e-07 -1.00000000e-02 -1.58379896e-03 
 1.32028400e-07 -1.00000000e-02 -1.48256731e-03 
 1.32628400e-07 -1.00000000e-02 -1.38221753e-03 
 1.33228400e-07 -1.00000000e-02 -1.28274206e-03 
 1.33828400e-07 -1.00000000e-02 -1.18413339e-03 
 1.34428400e-07 -1.00000000e-02 -1.08638406e-03 
 1.35028400e-07 -1.00000000e-02 -9.89486696e-04 
 1.35628400e-07 -1.00000000e-02 -8.93433970e-04 
 1.36228400e-07 -1.00000000e-02 -7.98218619e-04 
 1.36828400e-07 -1.00000000e-02 -7.03833437e-04 
 1.37428400e-07 -1.00000000e-02 -6.10271280e-04 
 1.38028400e-07 -1.00000000e-02 -5.17525063e-04 
 1.38628400e-07 -1.00000000e-02 -4.25587757e-04 
 1.39228400e-07 -1.00000000e-02 -3.34452395e-04 
 1.39828400e-07 -1.00000000e-02 -2.44112066e-04 
 1.40428400e-07 -1.00000000e-02 -1.54559915e-04 
 1.41028400e-07 -1.00000000e-02 -6.57891453e-05 
 1.41628400e-07 -1.00000000e-02  2.22069824e-05 
 1.42228400e-07 -1.00000000e-02  1.09435152e-04 
 1.42828400e-07 -1.00000000e-02  1.95901993e-04 
 1.43428400e-07 -1.00000000e-02  2.81614078e-04 
 1.44028400e-07 -1.00000000e-02  3.66577925e-04 
 1.44628400e-07 -1.00000000e-02  4.50799997e-04 
 1.45228400e-07 -1.00000000e-02  5.34286705e-04 
 1.45828400e-07 -1.00000000e-02  6.17044404e-04 
 1.46428400e-07 -1.00000000e-02  6.99079397e-04 
 1.47028400e-07 -1.00000000e-02  7.80397934e-04 
 1.47628400e-07 -1.00000000e-02  8.61006212e-04 
 1.48228400e-07 -1.00000000e-02  9.40910377e-04 
 1.48828400e-07 -1.00000000e-02  1.02011652e-03 
 1.49428400e-07 -1.00000000e-02  1.09863069e-03 
 1.50028400e-07 -1.00000000e-02  1.17645887e-03 
 1.50628400e-07 -1.00000000e-02  1.25360701e-03 
 1.51228400e-07 -1.00000000e-02  1.33008099e-03 
 1.51828400e-07 -1.00000000e-02  1.40588666e-03 
 1.52428400e-07 -1.00000000e-02  1.48102982e-03 
 1.53028400e-07 -1.00000000e-02  1.55551619e-03 
 1.53628400e-07 -1.00000000e-02  1.62935148e-03 
 1.54228400e-07 -1.00000000e-02  1.70254133e-03 
 1.54828400e-07 -1.00000000e-02  1.77509135e-03 
 1.55428400e-07 -1.00000000e-02  1.84700708e-03 
 1.56028400e-07 -1.00000000e-02  1.91829402e-03 
 1.56628400e-07 -1.00000000e-02  1.98895764e-03 
 1.57228400e-07 -1.00000000e-02  2.05900335e-03 
 1.57828400e-07 -1.00000000e-02  2.12843650e-03 
 1.58428400e-07 -1.00000000e-02  2.19726243e-03 
 1.59028400e-07 -1.00000000e-02  2.26548639e-03 
 1.59628400e-07 -1.00000000e-02  2.33311364e-03 
 1.60228400e-07 -1.00000000e-02  2.40014934e-03 
 1.60828400e-07 -1.00000000e-02  2.46659864e-03 
 1.61428400e-07 -1.00000000e-02  2.53246663e-03 
 1.62028400e-07 -1.00000000e-02  2.59775837e-03 
 1.62628400e-07 -1.00000000e-02  2.66247888e-03 
 1.63228400e-07 -1.00000000e-02  2.72663311e-03 
 1.63828400e-07 -1.00000000e-02  2.79022599e-03 
 1.64428400e-07 -1.00000000e-02  2.85326241e-03 
 1.65028400e-07 -1.00000000e-02  2.91574720e-03 
 1.65628400e-07 -1.00000000e-02  2.97768517e-03 
 1.66228400e-07 -1.00000000e-02  3.03908108e-03 
 1.66828400e-07 -1.00000000e-02  3.09993964e-03 
 1.67428400e-07 -1.00000000e-02  3.16026554e-03 
 1.68028400e-07 -1.00000000e-02  3.22006340e-03 
 1.68628400e-07 -1.00000000e-02  3.27933783e-03 
 1.69228400e-07 -1.00000000e-02  3.33809338e-03 
 1.69828400e-07 -1.00000000e-02  3.39633458e-03 
 1.70428400e-07 -1.00000000e-02  3.45406591e-03 
 1.71028400e-07 -1.00000000e-02  3.51129181e-03 
 1.71628400e-07 -1.00000000e-02  3.56801668e-03 
 1.72228400e-07 -1.00000000e-02  3.62424488e-03 
 1.72828400e-07 -1.00000000e-02  3.67998076e-03 
 1.73428400e-07 -1.00000000e-02  3.73522859e-03 
 1.74028400e-07 -1.00000000e-02  3.78999264e-03 
 1.74628400e-07 -1.00000000e-02  3.84427711e-03 
 1.75228400e-07 -1.00000000e-02  3.89808621e-03 
 1.75828400e-07 -1.00000000e-02  3.95142406e-03 
 1.76428400e-07 -1.00000000e-02  4.00429478e-03 
 1.77028400e-07 -1.00000000e-02  4.05670244e-03 
 1.77628400e-07 -1.00000000e-02  4.10865109e-03 
 1.78228400e-07 -1.00000000e-02  4.16014472e-03 
 1.78828400e-07 -1.00000000e-02  4.21118731e-03 
 1.79428400e-07 -1.00000000e-02  4.26178280e-03 
 1.80028400e-07 -1.00000000e-02  4.31193508e-03 
 1.80628400e-07 -1.00000000e-02  4.36164803e-03 
 1.81228400e-07 -1.00000000e-02  4.41092548e-03 
 1.81828400e-07 -1.00000000e-02  4.45977122e-03 
 1.82428400e-07 -1.00000000e-02  4.50818904e-03 
 1.83028400e-07 -1.00000000e-02  4.55618266e-03 
 1.83628400e-07 -1.00000000e-02  4.60375579e-03 
 1.84228400e-07 -1.00000000e-02  4.65091211e-03 
 1.84828400e-07 -1.00000000e-02  4.69765524e-03 
 1.85428400e-07 -1.00000000e-02  4.74398881e-03 
 1.86028400e-07 -1.00000000e-02  4.78991639e-03 
 1.86628400e-07 -1.00000000e-02  4.83544152e-03 
 1.87228400e-07 -1.00000000e-02  4.88056773e-03 
 1.87828400e-07 -1.00000000e-02  4.92529849e-03 
 1.88428400e-07 -1.00000000e-02  4.96963726e-03 
 1.89028400e-07 -1.00000000e-02  5.01358747e-03 
 1.89628400e-07 -1.00000000e-02  5.05715251e-03 
 1.90228400e-07 -1.00000000e-02  5.10033575e-03 
 1.90828400e-07 -1.00000000e-02  5.14314053e-03 
 1.91428400e-07 -1.00000000e-02  5.18557016e-03 
 1.92028400e-07 -1.00000000e-02  5.22762790e-03 
 1.92628400e-07 -1.00000000e-02  5.26931703e-03 
 1.93228400e-07 -1.00000000e-02  5.31064075e-03 
 1.93828400e-07 -1.00000000e-02  5.35160226e-03 
 1.94428400e-07 -1.00000000e-02  5.39220473e-03 
 1.95028400e-07 -1.00000000e-02  5.43245131e-03 
 1.95628400e-07 -1.00000000e-02  5.47234509e-03 
 1.96228400e-07 -1.00000000e-02  5.51188917e-03 
 1.96828400e-07 -1.00000000e-02  5.55108661e-03 
 1.97428400e-07 -1.00000000e-02  5.58994043e-03 
 1.98028400e-07 -1.00000000e-02  5.62845365e-03 
 1.98628400e-07 -1.00000000e-02  5.66662924e-03 
 1.99228400e-07 -1.00000000e-02  5.70447015e-03 
 1.99828400e-07 -1.00000000e-02  5.74197932e-03 
 2.00428400e-07 -1.00000000e-02  5.77915965e-03 
 2.01028400e-07 -1.00000000e-02  5.81601401e-03 
 2.01628400e-07 -1.00000000e-02  5.85254526e-03 
 2.02228400e-07 -1.00000000e-02  5.88875622e-03 
 2.02828400e-07 -1.00000000e-02  5.92464969e-03 
 2.03428400e-07 -1.00000000e-02  5.96022847e-03 
 2.04028400e-07 -1.00000000e-02  5.99549528e-03 
 2.04628400e-07 -1.00000000e-02  6.03045288e-03 
 2.05228400e-07 -1.00000000e-02  6.06510397e-03 
 2.05828400e-07 -1.00000000e-02  6.09945122e-03 
 2.06428400e-07 -1.00000000e-02  6.13349730e-03 
 2.07028400e-07 -1.00000000e-02  6.16724485e-03 
 2.07628400e-07 -1.00000000e-02  6.20069647e-03 
 2.08228400e-07 -1.00000000e-02  6.23385476e-03 
 2.08828400e-07 -1.00000000e-02  6.26672229e-03 
 2.09428400e-07 -1.00000000e-02  6.29930160e-03 
 2.10028400e-07 -1.00000000e-02  6.33159522e-03 
 2.10628400e-07 -1.00000000e-02  6.36360564e-03 
 2.11228400e-07 -1.00000000e-02  6.39533535e-03 
 2.11828400e-07 -1.00000000e-02  6.42678681e-03 
 2.12428400e-07 -1.00000000e-02  6.45796244e-03 
 2.13028400e-07 -1.00000000e-02  6.48886468e-03 
 2.13628400e-07 -1.00000000e-02  6.51949590e-03 
 2.14228400e-07 -1.00000000e-02  6.54985850e-03 
 2.14828400e-07 -1.00000000e-02  6.57995481e-03 
 2.15428400e-07 -1.00000000e-02  6.60978717e-03 
 2.16028400e-07 -1.00000000e-02  6.63935789e-03 
 2.16628400e-07 -1.00000000e-02  6.66866926e-03 
 2.17228400e-07 -1.00000000e-02  6.69772357e-03 
 2.17828400e-07 -1.00000000e-02  6.72652304e-03 
 2.18428400e-07 -1.00000000e-02  6.75506993e-03 
 2.19028400e-07 -1.00000000e-02  6.78336644e-03 
 2.19628400e-07 -1.00000000e-02  6.81141477e-03 
 2.20228400e-07 -1.00000000e-02  6.83921709e-03 
 2.20828400e-07 -1.00000000e-02  6.86677555e-03 
 2.21428400e-07 -1.00000000e-02  6.89409230e-03 
 2.22028400e-07 -1.00000000e-02  6.92116944e-03 
 2.22628400e-07 -1.00000000e-02  6.94800909e-03 
 2.23228400e-07 -1.00000000e-02  6.97461331e-03 
 2.23828400e-07 -1.00000000e-02  7.00098418e-03 
 2.24428400e-07 -1.00000000e-02  7.02712374e-03 
 2.25028400e-07 -1.00000000e-02  7.05303401e-03 
 2.25628400e-07 -1.00000000e-02  7.07871700e-03 
 2.26228400e-07 -1.00000000e-02  7.10417471e-03 
 2.26828400e-07 -1.00000000e-02  7.12940911e-03 
